
T3824 000:042 SEGGER J-Link V6.10i Log File (0000ms, 0018ms total)
T3824 000:042 DLL Compiled: Oct 25 2016 19:31:51 (0000ms, 0018ms total)
T3824 000:042 Logging started @ 2020-10-27 21:24 (0000ms, 0018ms total)
T3824 000:042 JLINK_SetWarnOutHandler(...) (0000ms, 0018ms total)
T3824 000:042 JLINK_OpenEx(...)
Firmware: J-Link V9 compiled May 17 2019 09:50:41
Hardware: V9.60
S/N: 69619282
Feature(s): RDI, GDB, FlashDL, FlashBP, JFlashWEBSRV Webserver running on local port 19080 (0013ms, 0031ms total)
T3824 000:042   returns O.K. (0013ms, 0031ms total)
T3824 000:055 JLINK_SetErrorOutHandler(...) (0000ms, 0031ms total)
T3824 000:055 JLINK_ExecCommand("ProjectFile = "C:\Users\WeiHaoLi\Desktop\F_DSP\Code\Multibuff\USER\JLinkSettings.ini"", ...). Device "CORTEX-M7" selected.  returns 0x00 (0051ms, 0082ms total)
T3824 000:106 JLINK_ExecCommand("Device = STM32H743VITx", ...). Device "CORTEX-M7" selected.  returns 0x00 (0001ms, 0083ms total)
T3824 000:107 JLINK_ExecCommand("DisableConnectionTimeout", ...).   returns 0x01 (0000ms, 0083ms total)
T3824 000:107 JLINK_GetHardwareVersion()  returns 0x17700 (0000ms, 0083ms total)
T3824 000:107 JLINK_GetDLLVersion()  returns 61009 (0000ms, 0083ms total)
T3824 000:107 JLINK_GetFirmwareString(...) (0000ms, 0083ms total)
T3824 000:107 JLINK_GetDLLVersion()  returns 61009 (0000ms, 0083ms total)
T3824 000:107 JLINK_GetCompileDateTime() (0000ms, 0083ms total)
T3824 000:107 JLINK_GetFirmwareString(...) (0000ms, 0083ms total)
T3824 000:107 JLINK_GetHardwareVersion()  returns 0x17700 (0000ms, 0083ms total)
T3824 000:107 JLINK_TIF_Select(JLINKARM_TIF_SWD)  returns 0x00 (0001ms, 0084ms total)
T3824 000:108 JLINK_SetSpeed(5000) (0001ms, 0085ms total)
T3824 000:109 JLINK_GetId() >0x108 TIF>Found SWD-DP with ID 0x6BA02477 >0x0D TIF> >0x28 TIF> >0x0D TIF> >0x28 TIF> >0x0D TIF> >0x28 TIF> >0x0D TIF> >0x28 TIF> >0x0D TIF> >0x21 TIF> >0x0D TIF> >0x28 TIF> >0x0D TIF> >0x28 TIF> >0x0D TIF> >0x21 TIF> >0x0D TIF> >0x21 TIF> >0x0D TIF> >0x21 TIF>AP-IDR: 0x84770001, Type: AHB-AP >0x0D TIF> >0x28 TIF> >0x0D TIF> >0x28 TIF> >0x0D TIF> >0x28 TIF> >0x0D TIF> >0x21 TIF> >0x0D TIF> >0x21 TIF> >0x0D TIF> >0x28 TIF> >0x0D TIF> >0x21 TIF> >0x0D TIF> >0x21 TIF>
Found Cortex-M7 r1p1, Little endian. -- CPU_ReadMem(4 bytes @ 0xE000EDF0) -- CPU_ReadMem(4 bytes @ 0xE0002000)FPUnit: 8 code (BP) slots and 0 literal slots -- CPU_ReadMem(4 bytes @ 0xE000EDFC) -- CPU_WriteMem(4 bytes @ 0xE000EDFC) -- CPU_ReadMem(4 bytes @ 0xE0001000) -- CPU_WriteMem(4 bytes @ 0xE0001000) -- CPU_ReadMem(4 bytes @ 0xE000ED88) -- CPU_WriteMem(4 bytes @ 0xE000ED88) -- CPU_ReadMem(4 bytes @ 0xE000ED88) -- CPU_WriteMem(4 bytes @ 0xE000ED88)CoreSight components:ROMTbl 0 @ E00FE000
 -- CPU_ReadMem(16 bytes @ 0xE00FE000) -- CPU_ReadMem(16 bytes @ 0xE00FFFF0) -- CPU_ReadMem(16 bytes @ 0xE00FFFE0)ROMTbl 0 [0]: 00001000, CID: B105100D, PID: 000BB4C7 ROM TableROMTbl 1 @ E00FF000 -- CPU_ReadMem(16 bytes @ 0xE00FF000) -- CPU_ReadMem(16 bytes @ 0xE000EFF0) -- CPU_ReadMem(16 bytes @ 0xE000EFE0)ROMTbl 1 [0]: FFF0F000, CID: B105E00D, PID: 000BB00C SCS -- CPU_ReadMem(16 bytes @ 0xE0001FF0) -- CPU_ReadMem(16 bytes @ 0xE0001FE0)ROMTbl 1 [1]: FFF02000, CID: B105E00D, PID: 000BB002 DWT
 -- CPU_ReadMem(16 bytes @ 0xE0002FF0) -- CPU_ReadMem(16 bytes @ 0xE0002FE0)ROMTbl 1 [2]: FFF03000, CID: B105E00D, PID: 000BB00E FPB -- CPU_ReadMem(16 bytes @ 0xE0000FF0) -- CPU_ReadMem(16 bytes @ 0xE0000FE0)ROMTbl 1 [3]: FFF01000, CID: B105E00D, PID: 000BB001 ITM -- CPU_ReadMem(16 bytes @ 0xE00FF010) -- CPU_ReadMem(16 bytes @ 0xE0041FF0) -- CPU_ReadMem(16 bytes @ 0xE0041FE0)ROMTbl 0 [1]: FFF43000, CID: B105900D, PID: 001BB975 ETM-M7 -- CPU_ReadMem(16 bytes @ 0xE0043FF0)
 -- CPU_ReadMem(16 bytes @ 0xE0043FE0)ROMTbl 0 [2]: FFF45000, CID: B105900D, PID: 004BB906 ECT / CTI -- CPU_ReadMem(16 bytes @ 0xE00FE010) -- CPU_ReadMem(4 bytes @ 0xE000ED78) -- CPU_WriteMem(4 bytes @ 0xE000ED84) -- CPU_ReadMem(4 bytes @ 0xE000ED80)I-Cache L1: 16 KB, 256 Sets, 32 Bytes/Line, 2-Way -- CPU_WriteMem(4 bytes @ 0xE000ED84) -- CPU_ReadMem(4 bytes @ 0xE000ED80)D-Cache L1: 16 KB, 128 Sets, 32 Bytes/Line, 4-Way >0x0D TIF> >0x21 TIF>  returns 0x6BA02477 (0027ms, 0112ms total)
T3824 000:136 JLINK_GetDLLVersion()  returns 61009 (0000ms, 0112ms total)
T3824 000:136 JLINK_CORE_GetFound()  returns 0xE0100FF (0000ms, 0112ms total)
T3824 000:136 JLINK_GetDebugInfo(0x100) -- Value=0xE00FE000  returns 0x00 (0000ms, 0112ms total)
T3824 000:136 JLINK_GetDebugInfo(0x100) -- Value=0xE00FE000  returns 0x00 (0000ms, 0112ms total)
T3824 000:136 JLINK_GetDebugInfo(0x101) -- Value=0xE0041000  returns 0x00 (0000ms, 0112ms total)
T3824 000:136 JLINK_GetDebugInfo(0x102) -- Value=0x00000000  returns 0x00 (0000ms, 0112ms total)
T3824 000:136 JLINK_GetDebugInfo(0x103) -- Value=0x00000000  returns 0x00 (0000ms, 0112ms total)
T3824 000:136 JLINK_ReadMem (0xE0040FF0, 0x0010 Bytes, ...) -- CPU is running -- CPU_ReadMem(16 bytes @ 0xE0040FF0) - Data: 00 00 00 00 00 00 00 00 00 00 00 00 00 00 00 00  returns 0x00 (0001ms, 0113ms total)
T3824 000:137 JLINK_GetDebugInfo(0x104) -- Value=0xE0000000  returns 0x00 (0000ms, 0113ms total)
T3824 000:137 JLINK_GetDebugInfo(0x105) -- Value=0xE0001000  returns 0x00 (0000ms, 0113ms total)
T3824 000:137 JLINK_GetDebugInfo(0x106) -- Value=0xE0002000  returns 0x00 (0000ms, 0113ms total)
T3824 000:137 JLINK_GetDebugInfo(0x107) -- Value=0xE000E000  returns 0x00 (0000ms, 0113ms total)
T3824 000:137 JLINK_GetDebugInfo(0x10C) -- Value=0xE000EDF0  returns 0x00 (0000ms, 0113ms total)
T3824 000:137 JLINK_ReadMemU32(0xE000ED00, 0x0001 Items, ...) -- CPU is running -- CPU_ReadMem(4 bytes @ 0xE000ED00) - Data: 71 C2 1F 41  returns 0x01 (0000ms, 0113ms total)
T3824 000:137 JLINK_ReadMemU32(0xE000EDF0, 0x0001 Items, ...) -- CPU is running -- CPU_ReadMem(4 bytes @ 0xE000EDF0) - Data: 01 00 01 01  returns 0x01 (0001ms, 0114ms total)
T3824 000:138 JLINK_SetResetType(JLINKARM_RESET_TYPE_NORMAL)  returns JLINKARM_RESET_TYPE_NORMAL (0000ms, 0114ms total)
T3824 000:138 JLINK_Reset() -- CPU is running -- CPU_WriteMem(4 bytes @ 0xE000EDF0) -- CPU is running -- CPU_WriteMem(4 bytes @ 0xE000EDFC) >0x35 TIF> -- CPU is running -- CPU_WriteMem(4 bytes @ 0xE000ED0C) -- CPU is running -- CPU_ReadMem(4 bytes @ 0xE000EDF0) -- CPU is running -- CPU_ReadMem(4 bytes @ 0xE000EDF0) -- CPU is running -- CPU_WriteMem(4 bytes @ 0xE000EDF0) -- CPU is running -- CPU_WriteMem(4 bytes @ 0xE000EDFC) -- CPU is running -- CPU_ReadMem(4 bytes @ 0xE000EDF0)
 -- CPU_WriteMem(4 bytes @ 0xE0002000) -- CPU_ReadMem(4 bytes @ 0xE000EDFC) -- CPU_ReadMem(4 bytes @ 0xE0001000) (0016ms, 0130ms total)
T3824 000:154 JLINK_ReadReg(R15 (PC))  returns 0x08100000 (0000ms, 0130ms total)
T3824 000:154 JLINK_ReadReg(XPSR)  returns 0x01000000 (0000ms, 0130ms total)
T3824 000:154 JLINK_Halt()  returns 0x00 (0000ms, 0130ms total)
T3824 000:154 JLINK_IsHalted()  returns TRUE (0000ms, 0130ms total)
T3824 000:154 JLINK_ReadMemU32(0xE000EDF0, 0x0001 Items, ...) -- CPU_ReadMem(4 bytes @ 0xE000EDF0) - Data: 03 00 03 00  returns 0x01 (0001ms, 0131ms total)
T3824 000:155 JLINK_WriteU32(0xE000EDF0, 0xA05F0003) -- CPU_WriteMem(4 bytes @ 0xE000EDF0)  returns 0x00 (0000ms, 0131ms total)
T3824 000:155 JLINK_WriteU32(0xE000EDFC, 0x01000000) -- CPU_WriteMem(4 bytes @ 0xE000EDFC)  returns 0x00 (0001ms, 0132ms total)
T3824 000:156 JLINK_GetHWStatus(...)  returns 0x00 (0000ms, 0132ms total)
T3824 000:156 JLINK_GetNumBPUnits(Type = 0xFFFFFF00)  returns 0x08 (0000ms, 0132ms total)
T3824 000:156 JLINK_GetNumBPUnits(Type = 0xF0)  returns 0x2000 (0000ms, 0132ms total)
T3824 000:156 JLINK_GetNumWPUnits()  returns 0x04 (0000ms, 0132ms total)
T3824 000:156 JLINK_GetSpeed()  returns 0xFA0 (0000ms, 0132ms total)
T3824 000:156 JLINK_ReadMemU32(0xE000E004, 0x0001 Items, ...) -- CPU_ReadMem(4 bytes @ 0xE000E004) - Data: 04 00 00 00  returns 0x01 (0000ms, 0132ms total)
T3824 000:156 JLINK_ReadMemU32(0xE000E004, 0x0001 Items, ...) -- CPU_ReadMem(4 bytes @ 0xE000E004) - Data: 04 00 00 00  returns 0x01 (0001ms, 0133ms total)
T3824 000:157 JLINK_WriteMem(0xE0001000, 0x001C Bytes, ...) - Data: 01 00 00 00 00 00 00 00 00 00 00 00 00 00 00 00 ... -- CPU_WriteMem(28 bytes @ 0xE0001000)  returns 0x1C (0001ms, 0134ms total)
T3824 000:158 JLINK_ReadMem (0xE0001000, 0x001C Bytes, ...) -- CPU_ReadMem(28 bytes @ 0xE0001000) - Data: 01 00 00 40 00 00 00 00 00 00 00 00 00 00 00 00 ...  returns 0x00 (0000ms, 0134ms total)
T3824 000:158 JLINK_ReadReg(R15 (PC))  returns 0x08100000 (0000ms, 0134ms total)
T3824 000:158 JLINK_ReadReg(XPSR)  returns 0x01000000 (0000ms, 0134ms total)
T3824 000:702 JLINK_SetResetType(JLINKARM_RESET_TYPE_NORMAL)  returns JLINKARM_RESET_TYPE_NORMAL (0000ms, 0134ms total)
T3824 000:702 JLINK_Reset() -- CPU_WriteMem(4 bytes @ 0xE000EDF0) -- CPU_WriteMem(4 bytes @ 0xE000EDFC) >0x35 TIF> -- CPU_WriteMem(4 bytes @ 0xE000ED0C) -- CPU_ReadMem(4 bytes @ 0xE000EDF0) -- CPU_ReadMem(4 bytes @ 0xE000EDF0) -- CPU_WriteMem(4 bytes @ 0xE000EDF0) -- CPU_WriteMem(4 bytes @ 0xE000EDFC) -- CPU is running -- CPU_ReadMem(4 bytes @ 0xE000EDF0) -- CPU_WriteMem(4 bytes @ 0xE0002000) -- CPU_ReadMem(4 bytes @ 0xE000EDFC) -- CPU_ReadMem(4 bytes @ 0xE0001000) (0016ms, 0150ms total)
T3824 000:718 JLINK_ReadReg(R15 (PC))  returns 0x08100000 (0000ms, 0150ms total)
T3824 000:718 JLINK_ReadReg(XPSR)  returns 0x01000000 (0000ms, 0150ms total)
T3824 000:719 JLINK_ReadMem (0x08100000, 0x003C Bytes, ...) -- CPU_ReadMem(60 bytes @ 0x08100000) - Data: 06 48 80 47 06 48 00 47 FE E7 FE E7 FE E7 FE E7 ...  returns 0x00 (0000ms, 0150ms total)
T3824 002:256 JLINK_ReadMem (0x40020010, 0x0004 Bytes, ...) -- CPU_ReadMem(4 bytes @ 0x40020010) - Data: 00 00 00 00  returns 0x00 (0000ms, 0150ms total)
T3824 002:258 JLINK_ReadMem (0x40020010, 0x0004 Bytes, ...) -- CPU_ReadMem(4 bytes @ 0x40020010) - Data: 00 00 00 00  returns 0x00 (0001ms, 0151ms total)
T3824 002:259 JLINK_ReadMem (0x40020010, 0x0004 Bytes, ...) -- CPU_ReadMem(4 bytes @ 0x40020010) - Data: 00 00 00 00  returns 0x00 (0000ms, 0151ms total)
T3824 002:266 JLINK_ReadMem (0x40020024, 0x0004 Bytes, ...) -- CPU_ReadMem(4 bytes @ 0x40020024) - Data: 00 00 00 00  returns 0x00 (0001ms, 0152ms total)
T3824 002:268 JLINK_ReadMem (0x40020024, 0x0004 Bytes, ...) -- CPU_ReadMem(4 bytes @ 0x40020024) - Data: 00 00 00 00  returns 0x00 (0001ms, 0153ms total)
T3824 002:269 JLINK_ReadMem (0x40020024, 0x0004 Bytes, ...) -- CPU_ReadMem(4 bytes @ 0x40020024) - Data: 00 00 00 00  returns 0x00 (0000ms, 0153ms total)
T3824 002:276 JLINK_ReadMem (0x40020018, 0x0004 Bytes, ...) -- CPU_ReadMem(4 bytes @ 0x40020018) - Data: 00 00 00 00  returns 0x00 (0001ms, 0154ms total)
T3824 002:279 JLINK_ReadMem (0x40020018, 0x0004 Bytes, ...) -- CPU_ReadMem(4 bytes @ 0x40020018) - Data: 00 00 00 00  returns 0x00 (0000ms, 0154ms total)
T3824 002:279 JLINK_ReadMem (0x40020018, 0x0004 Bytes, ...) -- CPU_ReadMem(4 bytes @ 0x40020018) - Data: 00 00 00 00  returns 0x00 (0000ms, 0154ms total)
T3824 002:286 JLINK_ReadMem (0x4002001C, 0x0004 Bytes, ...) -- CPU_ReadMem(4 bytes @ 0x4002001C) - Data: 00 00 00 00  returns 0x00 (0001ms, 0155ms total)
T3824 002:289 JLINK_ReadMem (0x4002001C, 0x0004 Bytes, ...) -- CPU_ReadMem(4 bytes @ 0x4002001C) - Data: 00 00 00 00  returns 0x00 (0000ms, 0155ms total)
T3824 002:289 JLINK_ReadMem (0x4002001C, 0x0004 Bytes, ...) -- CPU_ReadMem(4 bytes @ 0x4002001C) - Data: 00 00 00 00  returns 0x00 (0001ms, 0156ms total)
T3824 002:298 JLINK_ReadMem (0x40020020, 0x0004 Bytes, ...) -- CPU_ReadMem(4 bytes @ 0x40020020) - Data: 00 00 00 00  returns 0x00 (0000ms, 0156ms total)
T3824 002:300 JLINK_ReadMem (0x40020020, 0x0004 Bytes, ...) -- CPU_ReadMem(4 bytes @ 0x40020020) - Data: 00 00 00 00  returns 0x00 (0001ms, 0157ms total)
T3824 002:301 JLINK_ReadMem (0x40020020, 0x0004 Bytes, ...) -- CPU_ReadMem(4 bytes @ 0x40020020) - Data: 00 00 00 00  returns 0x00 (0000ms, 0157ms total)
T3824 002:316 JLINK_ReadMem (0x24000020, 0x0004 Bytes, ...) -- CPU_ReadMem(4 bytes @ 0x24000020) - Data: 02 00 00 00  returns 0x00 (0000ms, 0157ms total)
T3824 002:357 JLINK_ReadMem (0x24000026, 0x0002 Bytes, ...) -- CPU_ReadMem(2 bytes @ 0x24000026) - Data: 00 00  returns 0x00 (0001ms, 0158ms total)
T3824 002:365 JLINK_ReadMem (0x24000028, 0x0002 Bytes, ...) -- CPU_ReadMem(2 bytes @ 0x24000028) - Data: 01 00  returns 0x00 (0000ms, 0158ms total)
T3824 002:372 JLINK_ReadMem (0x24000024, 0x0002 Bytes, ...) -- CPU_ReadMem(2 bytes @ 0x24000024) - Data: 08 00  returns 0x00 (0001ms, 0159ms total)
T3824 002:426 JLINK_ReadMem (0x24000080, 0x0004 Bytes, ...) -- CPU_ReadMem(4 bytes @ 0x24000080) - Data: A7 38 2F 3B  returns 0x00 (0000ms, 0159ms total)
T3824 002:434 JLINK_ReadMem (0x24000880, 0x0004 Bytes, ...) -- CPU_ReadMem(4 bytes @ 0x24000880) - Data: 60 32 53 40  returns 0x00 (0001ms, 0160ms total)
T3824 002:443 JLINK_ReadMem (0x24001080, 0x0004 Bytes, ...) -- CPU_ReadMem(4 bytes @ 0x24001080) - Data: 93 DC 52 40  returns 0x00 (0000ms, 0160ms total)
T3824 002:452 JLINK_ReadMem (0x24001880, 0x0004 Bytes, ...) -- CPU_ReadMem(4 bytes @ 0x24001880) - Data: 93 DC 52 40  returns 0x00 (0000ms, 0160ms total)
T5944 002:492 JLINK_SetBPEx(Addr = 0x08101ED0, Type = 0xFFFFFFF2)  returns 0x00000001 (0000ms, 0160ms total)
T5944 002:492 JLINK_SetBPEx(Addr = 0x08101F1C, Type = 0xFFFFFFF2)  returns 0x00000002 (0000ms, 0160ms total)
T5944 002:492 JLINK_Go() -- CPU_WriteMem(4 bytes @ 0xE0002000) -- CPU_WriteMem(4 bytes @ 0xE0002000) -- CPU_ReadMem(4 bytes @ 0xE0001000) -- CPU_WriteMem(4 bytes @ 0xE0002008) -- CPU_WriteMem(4 bytes @ 0xE000200C) -- CPU_WriteMem(4 bytes @ 0xE0002010) -- CPU_WriteMem(4 bytes @ 0xE0002014) -- CPU_WriteMem(4 bytes @ 0xE0002018) -- CPU_WriteMem(4 bytes @ 0xE000201C) -- CPU_WriteMem(4 bytes @ 0xE0002020) -- CPU_WriteMem(4 bytes @ 0xE0002024) -- CPU_WriteMem(4 bytes @ 0xE0001004) (0004ms, 0164ms total)
T5944 002:597 JLINK_IsHalted()  returns TRUE (0002ms, 0166ms total)
T5944 002:599 JLINK_Halt()  returns 0x00 (0000ms, 0164ms total)
T5944 002:599 JLINK_IsHalted()  returns TRUE (0000ms, 0164ms total)
T5944 002:599 JLINK_IsHalted()  returns TRUE (0000ms, 0164ms total)
T5944 002:599 JLINK_IsHalted()  returns TRUE (0000ms, 0164ms total)
T5944 002:599 JLINK_ReadReg(R15 (PC))  returns 0x08101ED0 (0000ms, 0164ms total)
T5944 002:599 JLINK_ReadReg(XPSR)  returns 0x61000000 (0000ms, 0164ms total)
T5944 002:599 JLINK_ClrBPEx(BPHandle = 0x00000001)  returns 0x00 (0000ms, 0164ms total)
T5944 002:599 JLINK_ClrBPEx(BPHandle = 0x00000002)  returns 0x00 (0000ms, 0164ms total)
T5944 002:599 JLINK_ReadMemU32(0xE000ED30, 0x0001 Items, ...) -- CPU_ReadMem(4 bytes @ 0xE000ED30) - Data: 02 00 00 00  returns 0x01 (0000ms, 0164ms total)
T5944 002:599 JLINK_ReadMemU32(0xE0001028, 0x0001 Items, ...) -- CPU_ReadMem(4 bytes @ 0xE0001028) - Data: 00 00 00 00  returns 0x01 (0001ms, 0165ms total)
T5944 002:600 JLINK_ReadMemU32(0xE0001038, 0x0001 Items, ...) -- CPU_ReadMem(4 bytes @ 0xE0001038) - Data: 00 02 00 00  returns 0x01 (0000ms, 0165ms total)
T5944 002:600 JLINK_ReadMemU32(0xE0001048, 0x0001 Items, ...) -- CPU_ReadMem(4 bytes @ 0xE0001048) - Data: 00 00 00 00  returns 0x01 (0000ms, 0165ms total)
T5944 002:600 JLINK_ReadMemU32(0xE0001058, 0x0001 Items, ...) -- CPU_ReadMem(4 bytes @ 0xE0001058) - Data: 00 00 00 00  returns 0x01 (0001ms, 0166ms total)
T5944 002:601 JLINK_ReadReg(R0)  returns 0x08101ED1 (0000ms, 0166ms total)
T5944 002:601 JLINK_ReadReg(R1)  returns 0x24002C28 (0000ms, 0166ms total)
T5944 002:601 JLINK_ReadReg(R2)  returns 0x00000000 (0000ms, 0166ms total)
T5944 002:601 JLINK_ReadReg(R3)  returns 0x08001F49 (0000ms, 0166ms total)
T5944 002:601 JLINK_ReadReg(R4)  returns 0x08002060 (0000ms, 0166ms total)
T5944 002:601 JLINK_ReadReg(R5)  returns 0x08002060 (0000ms, 0166ms total)
T5944 002:601 JLINK_ReadReg(R6)  returns 0x00000000 (0000ms, 0166ms total)
T5944 002:601 JLINK_ReadReg(R7)  returns 0x00000000 (0000ms, 0166ms total)
T5944 002:601 JLINK_ReadReg(R8)  returns 0x00000000 (0000ms, 0166ms total)
T5944 002:601 JLINK_ReadReg(R9)  returns 0x00000000 (0000ms, 0166ms total)
T5944 002:601 JLINK_ReadReg(R10)  returns 0x00000000 (0000ms, 0166ms total)
T5944 002:601 JLINK_ReadReg(R11)  returns 0x00000000 (0000ms, 0166ms total)
T5944 002:601 JLINK_ReadReg(R12)  returns 0x00000000 (0000ms, 0166ms total)
T5944 002:601 JLINK_ReadReg(R13 (SP))  returns 0x24002C28 (0000ms, 0166ms total)
T5944 002:601 JLINK_ReadReg(R14)  returns 0x080002C9 (0000ms, 0166ms total)
T5944 002:601 JLINK_ReadReg(R15 (PC))  returns 0x08101ED0 (0000ms, 0166ms total)
T5944 002:601 JLINK_ReadReg(XPSR)  returns 0x61000000 (0000ms, 0166ms total)
T5944 002:601 JLINK_ReadReg(MSP)  returns 0x24002C28 (0000ms, 0166ms total)
T5944 002:601 JLINK_ReadReg(PSP)  returns 0x00000000 (0000ms, 0166ms total)
T5944 002:601 JLINK_ReadReg(CFBP)  returns 0x00000000 (0000ms, 0166ms total)
T5944 002:601 JLINK_ReadReg(FPSCR)  returns 0x00000000 (0003ms, 0169ms total)
T5944 002:604 JLINK_ReadReg(FPS0)  returns 0x00000000 (0000ms, 0169ms total)
T5944 002:604 JLINK_ReadReg(FPS1)  returns 0x00000000 (0000ms, 0169ms total)
T5944 002:604 JLINK_ReadReg(FPS2)  returns 0x00000000 (0000ms, 0169ms total)
T5944 002:604 JLINK_ReadReg(FPS3)  returns 0x00000000 (0000ms, 0169ms total)
T5944 002:604 JLINK_ReadReg(FPS4)  returns 0x00000000 (0000ms, 0169ms total)
T5944 002:604 JLINK_ReadReg(FPS5)  returns 0x00000000 (0000ms, 0169ms total)
T5944 002:604 JLINK_ReadReg(FPS6)  returns 0x00000000 (0000ms, 0169ms total)
T5944 002:604 JLINK_ReadReg(FPS7)  returns 0x00000000 (0000ms, 0169ms total)
T5944 002:604 JLINK_ReadReg(FPS8)  returns 0x00000000 (0000ms, 0169ms total)
T5944 002:604 JLINK_ReadReg(FPS9)  returns 0x00000000 (0000ms, 0169ms total)
T5944 002:604 JLINK_ReadReg(FPS10)  returns 0x00000000 (0000ms, 0169ms total)
T5944 002:604 JLINK_ReadReg(FPS11)  returns 0x00000000 (0000ms, 0169ms total)
T5944 002:604 JLINK_ReadReg(FPS12)  returns 0x00000000 (0000ms, 0169ms total)
T5944 002:604 JLINK_ReadReg(FPS13)  returns 0x00000000 (0000ms, 0169ms total)
T5944 002:604 JLINK_ReadReg(FPS14)  returns 0x00000000 (0000ms, 0169ms total)
T5944 002:604 JLINK_ReadReg(FPS15)  returns 0xFFFFFFFF (0001ms, 0170ms total)
T5944 002:605 JLINK_ReadReg(FPS16)  returns 0x00000000 (0000ms, 0170ms total)
T5944 002:605 JLINK_ReadReg(FPS17)  returns 0x00000000 (0000ms, 0170ms total)
T5944 002:605 JLINK_ReadReg(FPS18)  returns 0x00000000 (0000ms, 0170ms total)
T5944 002:605 JLINK_ReadReg(FPS19)  returns 0x00000000 (0000ms, 0170ms total)
T5944 002:605 JLINK_ReadReg(FPS20)  returns 0x00000000 (0000ms, 0170ms total)
T5944 002:605 JLINK_ReadReg(FPS21)  returns 0x00000000 (0000ms, 0170ms total)
T5944 002:605 JLINK_ReadReg(FPS22)  returns 0x00000000 (0000ms, 0170ms total)
T5944 002:605 JLINK_ReadReg(FPS23)  returns 0x00000000 (0000ms, 0170ms total)
T5944 002:605 JLINK_ReadReg(FPS24)  returns 0x00000000 (0000ms, 0170ms total)
T5944 002:605 JLINK_ReadReg(FPS25)  returns 0x00000000 (0000ms, 0170ms total)
T5944 002:605 JLINK_ReadReg(FPS26)  returns 0x00000000 (0000ms, 0170ms total)
T5944 002:605 JLINK_ReadReg(FPS27)  returns 0x00000000 (0000ms, 0170ms total)
T5944 002:605 JLINK_ReadReg(FPS28)  returns 0x00000000 (0000ms, 0170ms total)
T5944 002:605 JLINK_ReadReg(FPS29)  returns 0x00000000 (0000ms, 0170ms total)
T5944 002:605 JLINK_ReadReg(FPS30)  returns 0x00000000 (0000ms, 0170ms total)
T5944 002:605 JLINK_ReadReg(FPS31)  returns 0xFFFFFFFF (0000ms, 0170ms total)
T3824 002:607 JLINK_ReadMem (0x40020010, 0x0004 Bytes, ...) -- CPU_ReadMem(4 bytes @ 0x40020010) - Data: 00 00 00 00  returns 0x00 (0001ms, 0171ms total)
T3824 002:608 JLINK_ReadMem (0x40020024, 0x0004 Bytes, ...) -- CPU_ReadMem(4 bytes @ 0x40020024) - Data: 00 00 00 00  returns 0x00 (0000ms, 0171ms total)
T3824 002:608 JLINK_ReadMem (0x40020018, 0x0004 Bytes, ...) -- CPU_ReadMem(4 bytes @ 0x40020018) - Data: 00 00 00 00  returns 0x00 (0000ms, 0171ms total)
T3824 002:608 JLINK_ReadMem (0x4002001C, 0x0004 Bytes, ...) -- CPU_ReadMem(4 bytes @ 0x4002001C) - Data: 00 00 00 00  returns 0x00 (0001ms, 0172ms total)
T3824 002:609 JLINK_ReadMem (0x40020020, 0x0004 Bytes, ...) -- CPU_ReadMem(4 bytes @ 0x40020020) - Data: 00 00 00 00  returns 0x00 (0000ms, 0172ms total)
T3824 002:609 JLINK_ReadMem (0x24000020, 0x0004 Bytes, ...) -- CPU_ReadMem(4 bytes @ 0x24000020) - Data: 00 00 00 00  returns 0x00 (0001ms, 0173ms total)
T3824 002:611 JLINK_ReadMem (0x24000026, 0x0002 Bytes, ...) -- CPU_ReadMem(2 bytes @ 0x24000026) - Data: 00 00  returns 0x00 (0001ms, 0174ms total)
T3824 002:612 JLINK_ReadMem (0x24000028, 0x0002 Bytes, ...) -- CPU_ReadMem(2 bytes @ 0x24000028) - Data: 00 00  returns 0x00 (0000ms, 0174ms total)
T3824 002:612 JLINK_ReadMem (0x24000024, 0x0002 Bytes, ...) -- CPU_ReadMem(2 bytes @ 0x24000024) - Data: 00 00  returns 0x00 (0001ms, 0175ms total)
T3824 002:613 JLINK_ReadMem (0x24000080, 0x0004 Bytes, ...) -- CPU_ReadMem(4 bytes @ 0x24000080) - Data: 00 00 00 00  returns 0x00 (0000ms, 0175ms total)
T3824 002:613 JLINK_ReadMem (0x24000880, 0x0004 Bytes, ...) -- CPU_ReadMem(4 bytes @ 0x24000880) - Data: 00 00 00 00  returns 0x00 (0001ms, 0176ms total)
T3824 002:614 JLINK_ReadMem (0x24001080, 0x0004 Bytes, ...) -- CPU_ReadMem(4 bytes @ 0x24001080) - Data: 00 00 00 00  returns 0x00 (0000ms, 0176ms total)
T3824 002:614 JLINK_ReadMem (0x24001880, 0x0004 Bytes, ...) -- CPU_ReadMem(4 bytes @ 0x24001880) - Data: 00 00 00 00  returns 0x00 (0000ms, 0176ms total)
T3824 002:616 JLINK_ReadMem (0x08101ED0, 0x003C Bytes, ...) -- CPU_ReadMem(128 bytes @ 0x08101EC0) -- Updating DA cache (128 bytes @ 0x08101EC0) -- Read from DA cache (60 bytes @ 0x08101ED0) - Data: FF F6 3C FD FE F7 08 FA FE F7 30 FE 04 23 02 22 ...  returns 0x00 (0001ms, 0177ms total)
T5944 005:765 JLINK_SetBPEx(Addr = 0x08101F1C, Type = 0xFFFFFFF2)  returns 0x00000003 (0000ms, 0177ms total)
T5944 005:765 JLINK_Go() -- CPU_WriteMem(4 bytes @ 0xE0002000) -- CPU_ReadMem(4 bytes @ 0xE0001000) -- CPU_WriteMem(4 bytes @ 0xE0002008) -- CPU_WriteMem(4 bytes @ 0xE000200C) (0003ms, 0180ms total)
T5944 005:868 JLINK_IsHalted()  returns TRUE (0002ms, 0182ms total)
T5944 005:870 JLINK_Halt()  returns 0x00 (0000ms, 0180ms total)
T5944 005:870 JLINK_IsHalted()  returns TRUE (0000ms, 0180ms total)
T5944 005:870 JLINK_IsHalted()  returns TRUE (0000ms, 0180ms total)
T5944 005:870 JLINK_IsHalted()  returns TRUE (0000ms, 0180ms total)
T5944 005:870 JLINK_ReadReg(R15 (PC))  returns 0x08101F1C (0000ms, 0180ms total)
T5944 005:870 JLINK_ReadReg(XPSR)  returns 0x21000000 (0000ms, 0180ms total)
T5944 005:870 JLINK_ClrBPEx(BPHandle = 0x00000003)  returns 0x00 (0000ms, 0180ms total)
T5944 005:870 JLINK_ReadMemU32(0xE000ED30, 0x0001 Items, ...) -- CPU_ReadMem(4 bytes @ 0xE000ED30) - Data: 02 00 00 00  returns 0x01 (0000ms, 0180ms total)
T5944 005:870 JLINK_ReadMemU32(0xE0001028, 0x0001 Items, ...) -- CPU_ReadMem(4 bytes @ 0xE0001028) - Data: 00 00 00 00  returns 0x01 (0001ms, 0181ms total)
T5944 005:871 JLINK_ReadMemU32(0xE0001038, 0x0001 Items, ...) -- CPU_ReadMem(4 bytes @ 0xE0001038) - Data: 00 02 00 00  returns 0x01 (0000ms, 0181ms total)
T5944 005:871 JLINK_ReadMemU32(0xE0001048, 0x0001 Items, ...) -- CPU_ReadMem(4 bytes @ 0xE0001048) - Data: 00 00 00 00  returns 0x01 (0000ms, 0181ms total)
T5944 005:871 JLINK_ReadMemU32(0xE0001058, 0x0001 Items, ...) -- CPU_ReadMem(4 bytes @ 0xE0001058) - Data: 00 00 00 00  returns 0x01 (0001ms, 0182ms total)
T5944 005:872 JLINK_ReadReg(R0)  returns 0x0000017F (0000ms, 0182ms total)
T5944 005:872 JLINK_ReadReg(R1)  returns 0x2400222C (0000ms, 0182ms total)
T5944 005:872 JLINK_ReadReg(R2)  returns 0x00000080 (0000ms, 0182ms total)
T5944 005:872 JLINK_ReadReg(R3)  returns 0x000000FF (0000ms, 0182ms total)
T5944 005:872 JLINK_ReadReg(R4)  returns 0x24000026 (0000ms, 0182ms total)
T5944 005:872 JLINK_ReadReg(R5)  returns 0x58020000 (0000ms, 0182ms total)
T5944 005:872 JLINK_ReadReg(R6)  returns 0x00000000 (0000ms, 0182ms total)
T5944 005:872 JLINK_ReadReg(R7)  returns 0x00000000 (0000ms, 0182ms total)
T5944 005:872 JLINK_ReadReg(R8)  returns 0x00000000 (0000ms, 0182ms total)
T5944 005:872 JLINK_ReadReg(R9)  returns 0x00000000 (0000ms, 0182ms total)
T5944 005:872 JLINK_ReadReg(R10)  returns 0x00000000 (0000ms, 0182ms total)
T5944 005:872 JLINK_ReadReg(R11)  returns 0x00000000 (0000ms, 0182ms total)
T5944 005:872 JLINK_ReadReg(R12)  returns 0x24000428 (0000ms, 0182ms total)
T5944 005:872 JLINK_ReadReg(R13 (SP))  returns 0x24002C28 (0000ms, 0182ms total)
T5944 005:872 JLINK_ReadReg(R14)  returns 0x0810059F (0000ms, 0182ms total)
T5944 005:872 JLINK_ReadReg(R15 (PC))  returns 0x08101F1C (0000ms, 0182ms total)
T5944 005:872 JLINK_ReadReg(XPSR)  returns 0x21000000 (0000ms, 0182ms total)
T5944 005:872 JLINK_ReadReg(MSP)  returns 0x24002C28 (0000ms, 0182ms total)
T5944 005:872 JLINK_ReadReg(PSP)  returns 0x00000000 (0000ms, 0182ms total)
T5944 005:872 JLINK_ReadReg(CFBP)  returns 0x04000000 (0000ms, 0182ms total)
T5944 005:872 JLINK_ReadReg(FPSCR)  returns 0x00000010 (0003ms, 0185ms total)
T5944 005:875 JLINK_ReadReg(FPS0)  returns 0xBF800001 (0000ms, 0185ms total)
T5944 005:875 JLINK_ReadReg(FPS1)  returns 0xB61CC000 (0000ms, 0185ms total)
T5944 005:875 JLINK_ReadReg(FPS2)  returns 0x3F7FEC43 (0000ms, 0185ms total)
T5944 005:875 JLINK_ReadReg(FPS3)  returns 0xB61CC000 (0000ms, 0185ms total)
T5944 005:875 JLINK_ReadReg(FPS4)  returns 0xBF800001 (0000ms, 0185ms total)
T5944 005:875 JLINK_ReadReg(FPS5)  returns 0xBCC90AA5 (0000ms, 0185ms total)
T5944 005:875 JLINK_ReadReg(FPS6)  returns 0xBE8838D4 (0000ms, 0185ms total)
T5944 005:875 JLINK_ReadReg(FPS7)  returns 0xBDA8FAE9 (0001ms, 0186ms total)
T5944 005:876 JLINK_ReadReg(FPS8)  returns 0x66666666 (0000ms, 0186ms total)
T5944 005:876 JLINK_ReadReg(FPS9)  returns 0x400A6666 (0000ms, 0186ms total)
T5944 005:876 JLINK_ReadReg(FPS10)  returns 0x00000000 (0000ms, 0186ms total)
T5944 005:876 JLINK_ReadReg(FPS11)  returns 0x3EF00000 (0000ms, 0186ms total)
T5944 005:876 JLINK_ReadReg(FPS12)  returns 0x00000000 (0000ms, 0186ms total)
T5944 005:876 JLINK_ReadReg(FPS13)  returns 0x00000000 (0000ms, 0186ms total)
T5944 005:876 JLINK_ReadReg(FPS14)  returns 0x00000000 (0000ms, 0186ms total)
T5944 005:876 JLINK_ReadReg(FPS15)  returns 0xFFFFFFFF (0000ms, 0186ms total)
T5944 005:876 JLINK_ReadReg(FPS16)  returns 0x00000000 (0000ms, 0186ms total)
T5944 005:876 JLINK_ReadReg(FPS17)  returns 0x00000000 (0000ms, 0186ms total)
T5944 005:876 JLINK_ReadReg(FPS18)  returns 0x00000000 (0000ms, 0186ms total)
T5944 005:876 JLINK_ReadReg(FPS19)  returns 0x00000000 (0000ms, 0186ms total)
T5944 005:876 JLINK_ReadReg(FPS20)  returns 0x00000000 (0000ms, 0186ms total)
T5944 005:876 JLINK_ReadReg(FPS21)  returns 0x00000000 (0000ms, 0186ms total)
T5944 005:876 JLINK_ReadReg(FPS22)  returns 0x00000000 (0000ms, 0186ms total)
T5944 005:876 JLINK_ReadReg(FPS23)  returns 0x00000000 (0000ms, 0186ms total)
T5944 005:876 JLINK_ReadReg(FPS24)  returns 0x00000000 (0000ms, 0186ms total)
T5944 005:876 JLINK_ReadReg(FPS25)  returns 0x00000000 (0000ms, 0186ms total)
T5944 005:876 JLINK_ReadReg(FPS26)  returns 0x00000000 (0000ms, 0186ms total)
T5944 005:876 JLINK_ReadReg(FPS27)  returns 0x00000000 (0000ms, 0186ms total)
T5944 005:876 JLINK_ReadReg(FPS28)  returns 0x00000000 (0000ms, 0186ms total)
T5944 005:876 JLINK_ReadReg(FPS29)  returns 0x00000000 (0000ms, 0186ms total)
T5944 005:876 JLINK_ReadReg(FPS30)  returns 0x00000000 (0000ms, 0186ms total)
T5944 005:876 JLINK_ReadReg(FPS31)  returns 0xFFFFFFFF (0000ms, 0186ms total)
T3824 005:877 JLINK_ReadMem (0x40020010, 0x0004 Bytes, ...) -- CPU_ReadMem(4 bytes @ 0x40020010) - Data: 00 00 00 00  returns 0x00 (0001ms, 0187ms total)
T3824 005:878 JLINK_ReadMem (0x40020024, 0x0004 Bytes, ...) -- CPU_ReadMem(4 bytes @ 0x40020024) - Data: 21 00 00 00  returns 0x00 (0000ms, 0187ms total)
T3824 005:878 JLINK_ReadMem (0x40020018, 0x0004 Bytes, ...) -- CPU_ReadMem(4 bytes @ 0x40020018) - Data: 00 00 00 00  returns 0x00 (0001ms, 0188ms total)
T3824 005:879 JLINK_ReadMem (0x4002001C, 0x0004 Bytes, ...) -- CPU_ReadMem(4 bytes @ 0x4002001C) - Data: 00 00 00 00  returns 0x00 (0000ms, 0188ms total)
T3824 005:879 JLINK_ReadMem (0x40020020, 0x0004 Bytes, ...) -- CPU_ReadMem(4 bytes @ 0x40020020) - Data: 00 00 00 00  returns 0x00 (0001ms, 0189ms total)
T3824 005:880 JLINK_ReadMem (0x24000020, 0x0004 Bytes, ...) -- CPU_ReadMem(4 bytes @ 0x24000020) - Data: 00 00 00 00  returns 0x00 (0000ms, 0189ms total)
T3824 005:882 JLINK_ReadMem (0x24000026, 0x0002 Bytes, ...) -- CPU_ReadMem(2 bytes @ 0x24000026) - Data: 00 00  returns 0x00 (0000ms, 0189ms total)
T3824 005:882 JLINK_ReadMem (0x24000028, 0x0002 Bytes, ...) -- CPU_ReadMem(2 bytes @ 0x24000028) - Data: 00 00  returns 0x00 (0001ms, 0190ms total)
T3824 005:883 JLINK_ReadMem (0x24000024, 0x0002 Bytes, ...) -- CPU_ReadMem(2 bytes @ 0x24000024) - Data: 00 00  returns 0x00 (0000ms, 0190ms total)
T3824 005:883 JLINK_ReadMem (0x24000080, 0x0004 Bytes, ...) -- CPU_ReadMem(4 bytes @ 0x24000080) - Data: 0C 57 75 B9  returns 0x00 (0001ms, 0191ms total)
T3824 005:884 JLINK_ReadMem (0x24000880, 0x0004 Bytes, ...) -- CPU_ReadMem(4 bytes @ 0x24000880) - Data: 60 32 53 40  returns 0x00 (0000ms, 0191ms total)
T3824 005:884 JLINK_ReadMem (0x24001080, 0x0004 Bytes, ...) -- CPU_ReadMem(4 bytes @ 0x24001080) - Data: 00 00 00 00  returns 0x00 (0000ms, 0191ms total)
T3824 005:884 JLINK_ReadMem (0x24001880, 0x0004 Bytes, ...) -- CPU_ReadMem(4 bytes @ 0x24001880) - Data: 93 DC 52 40  returns 0x00 (0001ms, 0192ms total)
T3824 005:889 JLINK_ReadMem (0x08101F1C, 0x003C Bytes, ...) -- CPU_ReadMem(128 bytes @ 0x08101F00) -- Updating DA cache (128 bytes @ 0x08101F00) -- Read from DA cache (60 bytes @ 0x08101F1C) - Data: 0B 48 FE F7 7F F9 21 88 09 B1 01 22 00 E0 00 22 ...  returns 0x00 (0001ms, 0193ms total)
T5944 006:325 JLINK_Step() -- Read from DA cache (2 bytes @ 0x08101F1C) -- CPU_ReadMem(4 bytes @ 0xE000ED18) -- CPU_WriteMem(4 bytes @ 0xE000ED18) -- CPU_ReadMem(4 bytes @ 0xE000ED18) -- CPU_WriteMem(4 bytes @ 0xE000ED18) -- CPU_ReadMem(4 bytes @ 0xE0001004) -- Not simulated -- CPU_WriteMem(4 bytes @ 0xE0002008)  returns 0x00 (0007ms, 0200ms total)
T5944 006:332 JLINK_ReadReg(R15 (PC))  returns 0x08101F1E (0000ms, 0200ms total)
T5944 006:332 JLINK_ReadReg(XPSR)  returns 0x21000000 (0000ms, 0200ms total)
T5944 006:332 JLINK_SetBPEx(Addr = 0x08101F1C, Type = 0xFFFFFFF2)  returns 0x00000004 (0000ms, 0200ms total)
T5944 006:332 JLINK_Go() -- CPU_WriteMem(4 bytes @ 0xE0002000) -- CPU_ReadMem(4 bytes @ 0xE0001000) -- CPU_WriteMem(4 bytes @ 0xE0002008) (0002ms, 0202ms total)
T5944 006:435 JLINK_IsHalted()  returns TRUE (0002ms, 0204ms total)
T5944 006:437 JLINK_Halt()  returns 0x00 (0000ms, 0202ms total)
T5944 006:437 JLINK_IsHalted()  returns TRUE (0000ms, 0202ms total)
T5944 006:437 JLINK_IsHalted()  returns TRUE (0000ms, 0202ms total)
T5944 006:437 JLINK_IsHalted()  returns TRUE (0000ms, 0202ms total)
T5944 006:437 JLINK_ReadReg(R15 (PC))  returns 0x08101F1C (0000ms, 0202ms total)
T5944 006:437 JLINK_ReadReg(XPSR)  returns 0x21000000 (0000ms, 0202ms total)
T5944 006:437 JLINK_ClrBPEx(BPHandle = 0x00000004)  returns 0x00 (0000ms, 0202ms total)
T5944 006:437 JLINK_ReadMemU32(0xE000ED30, 0x0001 Items, ...) -- CPU_ReadMem(4 bytes @ 0xE000ED30) - Data: 02 00 00 00  returns 0x01 (0000ms, 0202ms total)
T5944 006:437 JLINK_ReadMemU32(0xE0001028, 0x0001 Items, ...) -- CPU_ReadMem(4 bytes @ 0xE0001028) - Data: 00 00 00 00  returns 0x01 (0001ms, 0203ms total)
T5944 006:438 JLINK_ReadMemU32(0xE0001038, 0x0001 Items, ...) -- CPU_ReadMem(4 bytes @ 0xE0001038) - Data: 00 02 00 00  returns 0x01 (0000ms, 0203ms total)
T5944 006:438 JLINK_ReadMemU32(0xE0001048, 0x0001 Items, ...) -- CPU_ReadMem(4 bytes @ 0xE0001048) - Data: 00 00 00 00  returns 0x01 (0001ms, 0204ms total)
T5944 006:439 JLINK_ReadMemU32(0xE0001058, 0x0001 Items, ...) -- CPU_ReadMem(4 bytes @ 0xE0001058) - Data: 00 00 00 00  returns 0x01 (0000ms, 0204ms total)
T5944 006:439 JLINK_ReadReg(R0)  returns 0x0000017F (0000ms, 0204ms total)
T5944 006:439 JLINK_ReadReg(R1)  returns 0x2400222C (0000ms, 0204ms total)
T5944 006:439 JLINK_ReadReg(R2)  returns 0x00000080 (0000ms, 0204ms total)
T5944 006:439 JLINK_ReadReg(R3)  returns 0x000000FF (0000ms, 0204ms total)
T5944 006:439 JLINK_ReadReg(R4)  returns 0x24000026 (0000ms, 0204ms total)
T5944 006:439 JLINK_ReadReg(R5)  returns 0x58020000 (0000ms, 0204ms total)
T5944 006:439 JLINK_ReadReg(R6)  returns 0x00000000 (0000ms, 0204ms total)
T5944 006:439 JLINK_ReadReg(R7)  returns 0x00000000 (0000ms, 0204ms total)
T5944 006:439 JLINK_ReadReg(R8)  returns 0x00000000 (0000ms, 0204ms total)
T5944 006:439 JLINK_ReadReg(R9)  returns 0x00000000 (0000ms, 0204ms total)
T5944 006:439 JLINK_ReadReg(R10)  returns 0x00000000 (0000ms, 0204ms total)
T5944 006:439 JLINK_ReadReg(R11)  returns 0x00000000 (0000ms, 0204ms total)
T5944 006:439 JLINK_ReadReg(R12)  returns 0x24000428 (0000ms, 0204ms total)
T5944 006:439 JLINK_ReadReg(R13 (SP))  returns 0x24002C28 (0000ms, 0204ms total)
T5944 006:439 JLINK_ReadReg(R14)  returns 0x0810059F (0000ms, 0204ms total)
T5944 006:439 JLINK_ReadReg(R15 (PC))  returns 0x08101F1C (0000ms, 0204ms total)
T5944 006:439 JLINK_ReadReg(XPSR)  returns 0x21000000 (0000ms, 0204ms total)
T5944 006:439 JLINK_ReadReg(MSP)  returns 0x24002C28 (0000ms, 0204ms total)
T5944 006:439 JLINK_ReadReg(PSP)  returns 0x00000000 (0000ms, 0204ms total)
T5944 006:439 JLINK_ReadReg(CFBP)  returns 0x04000000 (0000ms, 0204ms total)
T5944 006:439 JLINK_ReadReg(FPSCR)  returns 0x80000010 (0003ms, 0207ms total)
T5944 006:442 JLINK_ReadReg(FPS0)  returns 0xBF800001 (0000ms, 0207ms total)
T5944 006:442 JLINK_ReadReg(FPS1)  returns 0xB61CC000 (0000ms, 0207ms total)
T5944 006:442 JLINK_ReadReg(FPS2)  returns 0x3F7FEC43 (0000ms, 0207ms total)
T5944 006:442 JLINK_ReadReg(FPS3)  returns 0xB61CC000 (0000ms, 0207ms total)
T5944 006:442 JLINK_ReadReg(FPS4)  returns 0xBF800001 (0000ms, 0207ms total)
T5944 006:442 JLINK_ReadReg(FPS5)  returns 0xBCC90AA5 (0000ms, 0207ms total)
T5944 006:442 JLINK_ReadReg(FPS6)  returns 0xBE8838D4 (0000ms, 0207ms total)
T5944 006:442 JLINK_ReadReg(FPS7)  returns 0xBDA8FAE9 (0001ms, 0208ms total)
T5944 006:443 JLINK_ReadReg(FPS8)  returns 0x66666666 (0000ms, 0208ms total)
T5944 006:443 JLINK_ReadReg(FPS9)  returns 0x400A6666 (0000ms, 0208ms total)
T5944 006:443 JLINK_ReadReg(FPS10)  returns 0x00000000 (0000ms, 0208ms total)
T5944 006:443 JLINK_ReadReg(FPS11)  returns 0x3EF00000 (0000ms, 0208ms total)
T5944 006:443 JLINK_ReadReg(FPS12)  returns 0x00000000 (0000ms, 0208ms total)
T5944 006:443 JLINK_ReadReg(FPS13)  returns 0x00000000 (0000ms, 0208ms total)
T5944 006:443 JLINK_ReadReg(FPS14)  returns 0x00000000 (0000ms, 0208ms total)
T5944 006:443 JLINK_ReadReg(FPS15)  returns 0xFFFFFFFF (0000ms, 0208ms total)
T5944 006:443 JLINK_ReadReg(FPS16)  returns 0x00000000 (0000ms, 0208ms total)
T5944 006:443 JLINK_ReadReg(FPS17)  returns 0x00000000 (0000ms, 0208ms total)
T5944 006:443 JLINK_ReadReg(FPS18)  returns 0x00000000 (0000ms, 0208ms total)
T5944 006:443 JLINK_ReadReg(FPS19)  returns 0x00000000 (0000ms, 0208ms total)
T5944 006:443 JLINK_ReadReg(FPS20)  returns 0x00000000 (0000ms, 0208ms total)
T5944 006:443 JLINK_ReadReg(FPS21)  returns 0x00000000 (0000ms, 0208ms total)
T5944 006:443 JLINK_ReadReg(FPS22)  returns 0x00000000 (0000ms, 0208ms total)
T5944 006:443 JLINK_ReadReg(FPS23)  returns 0x00000000 (0000ms, 0208ms total)
T5944 006:443 JLINK_ReadReg(FPS24)  returns 0x00000000 (0000ms, 0208ms total)
T5944 006:443 JLINK_ReadReg(FPS25)  returns 0x00000000 (0000ms, 0208ms total)
T5944 006:443 JLINK_ReadReg(FPS26)  returns 0x00000000 (0000ms, 0208ms total)
T5944 006:443 JLINK_ReadReg(FPS27)  returns 0x00000000 (0000ms, 0208ms total)
T5944 006:443 JLINK_ReadReg(FPS28)  returns 0x00000000 (0000ms, 0208ms total)
T5944 006:443 JLINK_ReadReg(FPS29)  returns 0x00000000 (0000ms, 0208ms total)
T5944 006:443 JLINK_ReadReg(FPS30)  returns 0x00000000 (0000ms, 0208ms total)
T5944 006:443 JLINK_ReadReg(FPS31)  returns 0xFFFFFFFF (0000ms, 0208ms total)
T3824 006:444 JLINK_ReadMem (0x40020010, 0x0004 Bytes, ...) -- CPU_ReadMem(4 bytes @ 0x40020010) - Data: 00 00 00 00  returns 0x00 (0001ms, 0209ms total)
T3824 006:445 JLINK_ReadMem (0x40020024, 0x0004 Bytes, ...) -- CPU_ReadMem(4 bytes @ 0x40020024) - Data: 21 00 00 00  returns 0x00 (0000ms, 0209ms total)
T3824 006:445 JLINK_ReadMem (0x40020018, 0x0004 Bytes, ...) -- CPU_ReadMem(4 bytes @ 0x40020018) - Data: 00 00 00 00  returns 0x00 (0001ms, 0210ms total)
T3824 006:446 JLINK_ReadMem (0x4002001C, 0x0004 Bytes, ...) -- CPU_ReadMem(4 bytes @ 0x4002001C) - Data: 00 00 00 00  returns 0x00 (0000ms, 0210ms total)
T3824 006:446 JLINK_ReadMem (0x40020020, 0x0004 Bytes, ...) -- CPU_ReadMem(4 bytes @ 0x40020020) - Data: 00 00 00 00  returns 0x00 (0001ms, 0211ms total)
T3824 006:447 JLINK_ReadMem (0x24000020, 0x0004 Bytes, ...) -- CPU_ReadMem(4 bytes @ 0x24000020) - Data: 01 00 00 00  returns 0x00 (0000ms, 0211ms total)
T3824 006:449 JLINK_ReadMem (0x24000026, 0x0002 Bytes, ...) -- CPU_ReadMem(2 bytes @ 0x24000026) - Data: 00 00  returns 0x00 (0000ms, 0211ms total)
T3824 006:449 JLINK_ReadMem (0x24000028, 0x0002 Bytes, ...) -- CPU_ReadMem(2 bytes @ 0x24000028) - Data: 00 00  returns 0x00 (0001ms, 0212ms total)
T3824 006:450 JLINK_ReadMem (0x24000024, 0x0002 Bytes, ...) -- CPU_ReadMem(2 bytes @ 0x24000024) - Data: 01 00  returns 0x00 (0000ms, 0212ms total)
T3824 006:450 JLINK_ReadMem (0x24000080, 0x0004 Bytes, ...) -- CPU_ReadMem(4 bytes @ 0x24000080) - Data: B7 1C EC BA  returns 0x00 (0001ms, 0213ms total)
T3824 006:451 JLINK_ReadMem (0x24000880, 0x0004 Bytes, ...) -- CPU_ReadMem(4 bytes @ 0x24000880) - Data: BA 30 53 40  returns 0x00 (0000ms, 0213ms total)
T3824 006:451 JLINK_ReadMem (0x24001080, 0x0004 Bytes, ...) -- CPU_ReadMem(4 bytes @ 0x24001080) - Data: 00 00 00 00  returns 0x00 (0001ms, 0214ms total)
T3824 006:452 JLINK_ReadMem (0x24001880, 0x0004 Bytes, ...) -- CPU_ReadMem(4 bytes @ 0x24001880) - Data: 00 E4 52 40  returns 0x00 (0000ms, 0214ms total)
T5944 006:824 JLINK_Step() -- CPU_ReadMem(64 bytes @ 0x08101F00) -- Updating DA cache (64 bytes @ 0x08101F00) -- Read from DA cache (2 bytes @ 0x08101F1C) -- CPU_ReadMem(4 bytes @ 0xE0001004) -- Not simulated -- CPU_WriteMem(4 bytes @ 0xE0002008)  returns 0x00 (0006ms, 0220ms total)
T5944 006:830 JLINK_ReadReg(R15 (PC))  returns 0x08101F1E (0000ms, 0220ms total)
T5944 006:830 JLINK_ReadReg(XPSR)  returns 0x21000000 (0000ms, 0220ms total)
T5944 006:830 JLINK_SetBPEx(Addr = 0x08101F1C, Type = 0xFFFFFFF2)  returns 0x00000005 (0000ms, 0220ms total)
T5944 006:830 JLINK_Go() -- CPU_WriteMem(4 bytes @ 0xE0002000) -- CPU_ReadMem(4 bytes @ 0xE0001000) -- CPU_WriteMem(4 bytes @ 0xE0002008) (0002ms, 0222ms total)
T5944 006:933 JLINK_IsHalted()  returns TRUE (0002ms, 0224ms total)
T5944 006:935 JLINK_Halt()  returns 0x00 (0000ms, 0222ms total)
T5944 006:935 JLINK_IsHalted()  returns TRUE (0000ms, 0222ms total)
T5944 006:935 JLINK_IsHalted()  returns TRUE (0000ms, 0222ms total)
T5944 006:935 JLINK_IsHalted()  returns TRUE (0000ms, 0222ms total)
T5944 006:935 JLINK_ReadReg(R15 (PC))  returns 0x08101F1C (0000ms, 0222ms total)
T5944 006:935 JLINK_ReadReg(XPSR)  returns 0x21000000 (0000ms, 0222ms total)
T5944 006:935 JLINK_ClrBPEx(BPHandle = 0x00000005)  returns 0x00 (0000ms, 0222ms total)
T5944 006:935 JLINK_ReadMemU32(0xE000ED30, 0x0001 Items, ...) -- CPU_ReadMem(4 bytes @ 0xE000ED30) - Data: 02 00 00 00  returns 0x01 (0000ms, 0222ms total)
T5944 006:935 JLINK_ReadMemU32(0xE0001028, 0x0001 Items, ...) -- CPU_ReadMem(4 bytes @ 0xE0001028) - Data: 00 00 00 00  returns 0x01 (0001ms, 0223ms total)
T5944 006:936 JLINK_ReadMemU32(0xE0001038, 0x0001 Items, ...) -- CPU_ReadMem(4 bytes @ 0xE0001038) - Data: 00 02 00 00  returns 0x01 (0000ms, 0223ms total)
T5944 006:936 JLINK_ReadMemU32(0xE0001048, 0x0001 Items, ...) -- CPU_ReadMem(4 bytes @ 0xE0001048) - Data: 00 00 00 00  returns 0x01 (0001ms, 0224ms total)
T5944 006:937 JLINK_ReadMemU32(0xE0001058, 0x0001 Items, ...) -- CPU_ReadMem(4 bytes @ 0xE0001058) - Data: 00 00 00 00  returns 0x01 (0000ms, 0224ms total)
T5944 006:937 JLINK_ReadReg(R0)  returns 0x0000017F (0000ms, 0224ms total)
T5944 006:937 JLINK_ReadReg(R1)  returns 0x2400222C (0000ms, 0224ms total)
T5944 006:937 JLINK_ReadReg(R2)  returns 0x00000080 (0000ms, 0224ms total)
T5944 006:937 JLINK_ReadReg(R3)  returns 0x000000FF (0000ms, 0224ms total)
T5944 006:937 JLINK_ReadReg(R4)  returns 0x24000026 (0000ms, 0224ms total)
T5944 006:937 JLINK_ReadReg(R5)  returns 0x58020000 (0000ms, 0224ms total)
T5944 006:937 JLINK_ReadReg(R6)  returns 0x00000000 (0000ms, 0224ms total)
T5944 006:937 JLINK_ReadReg(R7)  returns 0x00000000 (0000ms, 0224ms total)
T5944 006:937 JLINK_ReadReg(R8)  returns 0x00000000 (0000ms, 0224ms total)
T5944 006:937 JLINK_ReadReg(R9)  returns 0x00000000 (0000ms, 0224ms total)
T5944 006:937 JLINK_ReadReg(R10)  returns 0x00000000 (0000ms, 0224ms total)
T5944 006:937 JLINK_ReadReg(R11)  returns 0x00000000 (0000ms, 0224ms total)
T5944 006:937 JLINK_ReadReg(R12)  returns 0x24000428 (0000ms, 0224ms total)
T5944 006:937 JLINK_ReadReg(R13 (SP))  returns 0x24002C28 (0000ms, 0224ms total)
T5944 006:937 JLINK_ReadReg(R14)  returns 0x0810059F (0000ms, 0224ms total)
T5944 006:937 JLINK_ReadReg(R15 (PC))  returns 0x08101F1C (0000ms, 0224ms total)
T5944 006:937 JLINK_ReadReg(XPSR)  returns 0x21000000 (0000ms, 0224ms total)
T5944 006:937 JLINK_ReadReg(MSP)  returns 0x24002C28 (0000ms, 0224ms total)
T5944 006:937 JLINK_ReadReg(PSP)  returns 0x00000000 (0000ms, 0224ms total)
T5944 006:937 JLINK_ReadReg(CFBP)  returns 0x04000000 (0000ms, 0224ms total)
T5944 006:937 JLINK_ReadReg(FPSCR)  returns 0x80000010 (0003ms, 0227ms total)
T5944 006:940 JLINK_ReadReg(FPS0)  returns 0xBF800001 (0000ms, 0227ms total)
T5944 006:940 JLINK_ReadReg(FPS1)  returns 0xB61CC000 (0000ms, 0227ms total)
T5944 006:940 JLINK_ReadReg(FPS2)  returns 0x3F7FEC43 (0000ms, 0227ms total)
T5944 006:940 JLINK_ReadReg(FPS3)  returns 0xB61CC000 (0000ms, 0227ms total)
T5944 006:940 JLINK_ReadReg(FPS4)  returns 0xBF800001 (0000ms, 0227ms total)
T5944 006:940 JLINK_ReadReg(FPS5)  returns 0xBCC90AA5 (0000ms, 0227ms total)
T5944 006:940 JLINK_ReadReg(FPS6)  returns 0xBE8838D4 (0001ms, 0228ms total)
T5944 006:941 JLINK_ReadReg(FPS7)  returns 0xBDA8FAE9 (0000ms, 0228ms total)
T5944 006:941 JLINK_ReadReg(FPS8)  returns 0x66666666 (0000ms, 0228ms total)
T5944 006:941 JLINK_ReadReg(FPS9)  returns 0x400A6666 (0000ms, 0228ms total)
T5944 006:941 JLINK_ReadReg(FPS10)  returns 0x00000000 (0000ms, 0228ms total)
T5944 006:941 JLINK_ReadReg(FPS11)  returns 0x3EF00000 (0000ms, 0228ms total)
T5944 006:941 JLINK_ReadReg(FPS12)  returns 0x00000000 (0000ms, 0228ms total)
T5944 006:941 JLINK_ReadReg(FPS13)  returns 0x00000000 (0000ms, 0228ms total)
T5944 006:941 JLINK_ReadReg(FPS14)  returns 0x00000000 (0000ms, 0228ms total)
T5944 006:941 JLINK_ReadReg(FPS15)  returns 0xFFFFFFFF (0000ms, 0228ms total)
T5944 006:941 JLINK_ReadReg(FPS16)  returns 0x00000000 (0000ms, 0228ms total)
T5944 006:941 JLINK_ReadReg(FPS17)  returns 0x00000000 (0000ms, 0228ms total)
T5944 006:941 JLINK_ReadReg(FPS18)  returns 0x00000000 (0000ms, 0228ms total)
T5944 006:941 JLINK_ReadReg(FPS19)  returns 0x00000000 (0000ms, 0228ms total)
T5944 006:941 JLINK_ReadReg(FPS20)  returns 0x00000000 (0000ms, 0228ms total)
T5944 006:941 JLINK_ReadReg(FPS21)  returns 0x00000000 (0000ms, 0228ms total)
T5944 006:941 JLINK_ReadReg(FPS22)  returns 0x00000000 (0000ms, 0228ms total)
T5944 006:941 JLINK_ReadReg(FPS23)  returns 0x00000000 (0000ms, 0228ms total)
T5944 006:941 JLINK_ReadReg(FPS24)  returns 0x00000000 (0000ms, 0228ms total)
T5944 006:941 JLINK_ReadReg(FPS25)  returns 0x00000000 (0000ms, 0228ms total)
T5944 006:941 JLINK_ReadReg(FPS26)  returns 0x00000000 (0000ms, 0228ms total)
T5944 006:941 JLINK_ReadReg(FPS27)  returns 0x00000000 (0000ms, 0228ms total)
T5944 006:941 JLINK_ReadReg(FPS28)  returns 0x00000000 (0000ms, 0228ms total)
T5944 006:941 JLINK_ReadReg(FPS29)  returns 0x00000000 (0000ms, 0228ms total)
T5944 006:941 JLINK_ReadReg(FPS30)  returns 0x00000000 (0000ms, 0228ms total)
T5944 006:941 JLINK_ReadReg(FPS31)  returns 0xFFFFFFFF (0000ms, 0228ms total)
T3824 006:942 JLINK_ReadMem (0x40020010, 0x0004 Bytes, ...) -- CPU_ReadMem(4 bytes @ 0x40020010) - Data: 00 00 00 00  returns 0x00 (0001ms, 0229ms total)
T3824 006:943 JLINK_ReadMem (0x40020024, 0x0004 Bytes, ...) -- CPU_ReadMem(4 bytes @ 0x40020024) - Data: 21 00 00 00  returns 0x00 (0000ms, 0229ms total)
T3824 006:943 JLINK_ReadMem (0x40020018, 0x0004 Bytes, ...) -- CPU_ReadMem(4 bytes @ 0x40020018) - Data: 00 00 00 00  returns 0x00 (0001ms, 0230ms total)
T3824 006:944 JLINK_ReadMem (0x4002001C, 0x0004 Bytes, ...) -- CPU_ReadMem(4 bytes @ 0x4002001C) - Data: 00 00 00 00  returns 0x00 (0000ms, 0230ms total)
T3824 006:944 JLINK_ReadMem (0x40020020, 0x0004 Bytes, ...) -- CPU_ReadMem(4 bytes @ 0x40020020) - Data: 00 00 00 00  returns 0x00 (0000ms, 0230ms total)
T3824 006:944 JLINK_ReadMem (0x24000020, 0x0004 Bytes, ...) -- CPU_ReadMem(4 bytes @ 0x24000020) - Data: 02 00 00 00  returns 0x00 (0001ms, 0231ms total)
T3824 006:947 JLINK_ReadMem (0x24000026, 0x0002 Bytes, ...) -- CPU_ReadMem(2 bytes @ 0x24000026) - Data: 00 00  returns 0x00 (0000ms, 0231ms total)
T3824 006:947 JLINK_ReadMem (0x24000028, 0x0002 Bytes, ...) -- CPU_ReadMem(2 bytes @ 0x24000028) - Data: 00 00  returns 0x00 (0001ms, 0232ms total)
T3824 006:948 JLINK_ReadMem (0x24000024, 0x0002 Bytes, ...) -- CPU_ReadMem(2 bytes @ 0x24000024) - Data: 02 00  returns 0x00 (0000ms, 0232ms total)
T3824 006:948 JLINK_ReadMem (0x24000080, 0x0004 Bytes, ...) -- CPU_ReadMem(4 bytes @ 0x24000080) - Data: F1 3F B9 3A  returns 0x00 (0000ms, 0232ms total)
T3824 006:948 JLINK_ReadMem (0x24000880, 0x0004 Bytes, ...) -- CPU_ReadMem(4 bytes @ 0x24000880) - Data: F3 2A 53 40  returns 0x00 (0001ms, 0233ms total)
T3824 006:949 JLINK_ReadMem (0x24001080, 0x0004 Bytes, ...) -- CPU_ReadMem(4 bytes @ 0x24001080) - Data: 00 00 00 00  returns 0x00 (0000ms, 0233ms total)
T3824 006:949 JLINK_ReadMem (0x24001880, 0x0004 Bytes, ...) -- CPU_ReadMem(4 bytes @ 0x24001880) - Data: B3 E0 52 40  returns 0x00 (0001ms, 0234ms total)
T5944 007:249 JLINK_Step() -- CPU_ReadMem(64 bytes @ 0x08101F00) -- Updating DA cache (64 bytes @ 0x08101F00) -- Read from DA cache (2 bytes @ 0x08101F1C) -- CPU_ReadMem(4 bytes @ 0xE0001004) -- Not simulated -- CPU_WriteMem(4 bytes @ 0xE0002008)  returns 0x00 (0005ms, 0239ms total)
T5944 007:254 JLINK_ReadReg(R15 (PC))  returns 0x08101F1E (0000ms, 0239ms total)
T5944 007:254 JLINK_ReadReg(XPSR)  returns 0x21000000 (0000ms, 0239ms total)
T5944 007:254 JLINK_SetBPEx(Addr = 0x08101F1C, Type = 0xFFFFFFF2)  returns 0x00000006 (0000ms, 0239ms total)
T5944 007:254 JLINK_Go() -- CPU_WriteMem(4 bytes @ 0xE0002000) -- CPU_ReadMem(4 bytes @ 0xE0001000) -- CPU_WriteMem(4 bytes @ 0xE0002008) (0002ms, 0241ms total)
T5944 007:357 JLINK_IsHalted()  returns TRUE (0002ms, 0243ms total)
T5944 007:359 JLINK_Halt()  returns 0x00 (0000ms, 0241ms total)
T5944 007:359 JLINK_IsHalted()  returns TRUE (0000ms, 0241ms total)
T5944 007:359 JLINK_IsHalted()  returns TRUE (0000ms, 0241ms total)
T5944 007:359 JLINK_IsHalted()  returns TRUE (0000ms, 0241ms total)
T5944 007:359 JLINK_ReadReg(R15 (PC))  returns 0x08101F1C (0000ms, 0241ms total)
T5944 007:359 JLINK_ReadReg(XPSR)  returns 0x21000000 (0000ms, 0241ms total)
T5944 007:359 JLINK_ClrBPEx(BPHandle = 0x00000006)  returns 0x00 (0000ms, 0241ms total)
T5944 007:359 JLINK_ReadMemU32(0xE000ED30, 0x0001 Items, ...) -- CPU_ReadMem(4 bytes @ 0xE000ED30) - Data: 02 00 00 00  returns 0x01 (0000ms, 0241ms total)
T5944 007:359 JLINK_ReadMemU32(0xE0001028, 0x0001 Items, ...) -- CPU_ReadMem(4 bytes @ 0xE0001028) - Data: 00 00 00 00  returns 0x01 (0001ms, 0242ms total)
T5944 007:360 JLINK_ReadMemU32(0xE0001038, 0x0001 Items, ...) -- CPU_ReadMem(4 bytes @ 0xE0001038) - Data: 00 02 00 00  returns 0x01 (0000ms, 0242ms total)
T5944 007:360 JLINK_ReadMemU32(0xE0001048, 0x0001 Items, ...) -- CPU_ReadMem(4 bytes @ 0xE0001048) - Data: 00 00 00 00  returns 0x01 (0000ms, 0242ms total)
T5944 007:360 JLINK_ReadMemU32(0xE0001058, 0x0001 Items, ...) -- CPU_ReadMem(4 bytes @ 0xE0001058) - Data: 00 00 00 00  returns 0x01 (0001ms, 0243ms total)
T5944 007:361 JLINK_ReadReg(R0)  returns 0x0000017F (0000ms, 0243ms total)
T5944 007:361 JLINK_ReadReg(R1)  returns 0x2400222C (0000ms, 0243ms total)
T5944 007:361 JLINK_ReadReg(R2)  returns 0x00000080 (0000ms, 0243ms total)
T5944 007:361 JLINK_ReadReg(R3)  returns 0x000000FF (0000ms, 0243ms total)
T5944 007:361 JLINK_ReadReg(R4)  returns 0x24000026 (0000ms, 0243ms total)
T5944 007:361 JLINK_ReadReg(R5)  returns 0x58020000 (0000ms, 0243ms total)
T5944 007:361 JLINK_ReadReg(R6)  returns 0x00000000 (0000ms, 0243ms total)
T5944 007:361 JLINK_ReadReg(R7)  returns 0x00000000 (0000ms, 0243ms total)
T5944 007:361 JLINK_ReadReg(R8)  returns 0x00000000 (0000ms, 0243ms total)
T5944 007:361 JLINK_ReadReg(R9)  returns 0x00000000 (0000ms, 0243ms total)
T5944 007:361 JLINK_ReadReg(R10)  returns 0x00000000 (0000ms, 0243ms total)
T5944 007:361 JLINK_ReadReg(R11)  returns 0x00000000 (0000ms, 0243ms total)
T5944 007:361 JLINK_ReadReg(R12)  returns 0x24000428 (0000ms, 0243ms total)
T5944 007:361 JLINK_ReadReg(R13 (SP))  returns 0x24002C28 (0000ms, 0243ms total)
T5944 007:361 JLINK_ReadReg(R14)  returns 0x0810059F (0000ms, 0243ms total)
T5944 007:361 JLINK_ReadReg(R15 (PC))  returns 0x08101F1C (0000ms, 0243ms total)
T5944 007:361 JLINK_ReadReg(XPSR)  returns 0x21000000 (0000ms, 0243ms total)
T5944 007:361 JLINK_ReadReg(MSP)  returns 0x24002C28 (0000ms, 0243ms total)
T5944 007:361 JLINK_ReadReg(PSP)  returns 0x00000000 (0000ms, 0243ms total)
T5944 007:361 JLINK_ReadReg(CFBP)  returns 0x04000000 (0000ms, 0243ms total)
T5944 007:361 JLINK_ReadReg(FPSCR)  returns 0x80000010 (0003ms, 0246ms total)
T5944 007:364 JLINK_ReadReg(FPS0)  returns 0xBF800001 (0000ms, 0246ms total)
T5944 007:364 JLINK_ReadReg(FPS1)  returns 0xB61CC000 (0000ms, 0246ms total)
T5944 007:364 JLINK_ReadReg(FPS2)  returns 0x3F7FEC43 (0000ms, 0246ms total)
T5944 007:364 JLINK_ReadReg(FPS3)  returns 0xB61CC000 (0000ms, 0246ms total)
T5944 007:364 JLINK_ReadReg(FPS4)  returns 0xBF800001 (0000ms, 0246ms total)
